# MHz S MA R 50
!   freq        S11       
  90.100  0.72260 -172.78
  92.600  0.73959 -172.80
  95.100  0.75656 -173.39
  97.600  0.77060 -174.43
 100.100  0.77968 -175.88
 102.600  0.78435 -177.65
 105.100  0.78138 -179.73
 107.600  0.76935  177.90
 110.100  0.74623  175.14
 112.600  0.70581  172.02
 115.100  0.63952  168.73
 117.600  0.53482  166.72
 120.100  0.39225  172.41
 122.600  0.32276 -158.15
 125.100  0.47601 -136.23
 127.600  0.66912 -137.41
 130.100  0.79990 -143.38
 132.600  0.87533 -149.05
 135.100  0.91890 -153.55
 137.600  0.94428 -157.17
 140.100  0.96039 -160.00
 142.600  0.97038 -162.31
 145.100  0.97690 -164.30
 147.600  0.98103 -165.93
 150.100  0.98474 -167.41
 152.600  0.98674 -168.69
 155.100  0.98910 -169.80
 157.600  0.99051 -170.84
 160.100  0.99166 -171.77
 162.600  0.99269 -172.67
 165.100  0.99356 -173.46
 167.600  0.99398 -174.22
 170.100  0.99409 -174.90
 172.600  0.99457 -175.73
 175.100  0.99494 -176.18
 177.600  0.99485 -176.85
 180.100  0.99497 -177.44
 182.600  0.99505 -178.06
 185.100  0.99497 -178.60
 187.600  0.99505 -179.15
 190.100  0.99540 -179.67
 192.600  0.99511  179.82
 195.100  0.99524  179.29
 197.600  0.99483  178.82
 200.100  0.99505  178.34
 202.600  0.99495  177.79
 205.100  0.99482  177.33
 207.600  0.99440  176.92
 210.100  0.99481  176.35
 212.600  0.99469  175.90
 215.100  0.99442  175.41
 217.600  0.99442  174.94
 220.100  0.99482  174.50
 222.600  0.99464  173.97
 225.100  0.99466  173.48
 227.600  0.99456  172.93
 230.100  0.99488  172.42
 232.600  0.99453  171.90
 235.100  0.99421  171.34
 237.600  0.99386  170.77
 240.100  0.99352  170.17
 242.600  0.99300  169.55
 245.100  0.99209  168.96
 247.600  0.99209  168.29
 250.100  0.99098  167.54
 252.600  0.99022  166.78
 255.100  0.98965  166.02
 257.600  0.98907  165.21
 260.100  0.98782  164.22
 262.600  0.98650  163.31
 265.100  0.98533  162.13
 267.600  0.98430  160.85
 270.100  0.98170  159.53
 272.600  0.97866  157.93
 275.100  0.97611  156.23
 277.600  0.97099  154.06
 280.100  0.96581  151.62
 282.600  0.95765  148.57
 285.100  0.94575  144.92
 287.600  0.92862  140.14
 290.100  0.90335  133.85
 292.600  0.86505  125.27
 295.100  0.80011  112.67
 297.600  0.69167   92.93
 300.100  0.53215   59.10
 302.600  0.41006   -1.21
 305.100  0.50545  -65.70
 307.600  0.66989 -102.80
 310.100  0.78510 -124.02
 312.600  0.85563 -137.44
 315.100  0.89762 -146.40
 317.600  0.92411 -152.99
 320.100  0.94212 -157.88
 322.600  0.95494 -161.82
 325.100  0.96424 -164.86
 327.600  0.97088 -167.35
 330.100  0.97535 -169.41
 332.600  0.97971 -171.26
 335.100  0.98294 -172.91
 337.600  0.98497 -174.28
 340.100  0.98685 -175.43
 342.600  0.98817 -176.62
 345.100  0.98990 -177.61
 347.600  0.99106 -178.47
 350.100  0.99153 -179.43
 352.600  0.99244  179.87
 355.100  0.99337  179.02
 357.600  0.99373  178.36
 360.100  0.99367  177.76
 362.600  0.99440  177.14
 365.100  0.99482  176.56
 367.600  0.99470  176.03
 370.100  0.99537  175.43
 372.600  0.99552  175.08
 375.100  0.99579  174.44
 377.600  0.99554  174.03
 380.100  0.99583  173.60
 382.600  0.99312  173.22
 385.100  0.99622  172.80
 387.600  0.99584  172.32
 390.100  0.99614  171.92
 392.600  0.99602  171.56
 395.100  0.99638  171.11
 397.600  0.99635  170.70
 400.100  0.99610  170.48
 402.600  0.99611  170.05
 405.100  0.99611  169.73
 407.600  0.99590  169.41
 410.100  0.99613  169.07
 412.600  0.99622  168.73
 415.100  0.99556  168.49
 417.600  0.99577  168.07
 420.100  0.99535  167.65
 422.600  0.99538  167.39
 425.100  0.99501  167.25
 427.600  0.99482  166.71
 430.100  0.99432  166.45
 432.600  0.99429  166.17
 435.100  0.99454  165.84
 437.600  0.99402  165.61
 440.100  0.99410  165.46
 442.600  0.99370  164.98
 445.100  0.99354  164.67
 447.600  0.99360  164.44
 450.100  0.99339  164.17
 452.600  0.99311  163.84
 455.100  0.99247  163.47
 457.600  0.99247  163.24
 460.100  0.99273  163.05
 462.600  0.99225  162.74
