# MHz S MA R 50
!   freq        S11       
  90.100  0.89220 -176.63
  92.600  0.89418 -178.56
  95.100  0.89358  179.35
  97.600  0.88961  177.03
 100.100  0.88132  174.45
 102.600  0.86786  171.47
 105.100  0.84679  167.89
 107.600  0.81250  163.41
 110.100  0.75891  157.62
 112.600  0.66845  149.77
 115.100  0.51193  139.12
 117.600  0.25012  128.02
 120.100  0.12653 -107.44
 122.600  0.46118 -111.65
 125.100  0.68912 -126.14
 127.600  0.81617 -137.16
 130.100  0.88350 -144.83
 132.600  0.92273 -150.44
 135.100  0.94557 -154.65
 137.600  0.95952 -157.89
 140.100  0.96896 -160.55
 142.600  0.97546 -162.68
 145.100  0.97966 -164.58
 147.600  0.98287 -166.12
 150.100  0.98568 -167.48
 152.600  0.98725 -168.74
 155.100  0.98927 -169.85
 157.600  0.99024 -170.87
 160.100  0.99141 -171.74
 162.600  0.99223 -172.65
 165.100  0.99243 -173.43
 167.600  0.99325 -174.18
 170.100  0.99310 -174.85
 172.600  0.99329 -175.69
 175.100  0.99354 -176.12
 177.600  0.99393 -176.77
 180.100  0.99383 -177.35
 182.600  0.99384 -178.00
 185.100  0.99390 -178.53
 187.600  0.99372 -179.08
 190.100  0.99406 -179.59
 192.600  0.99393  179.92
 195.100  0.99404  179.39
 197.600  0.99344  178.85
 200.100  0.99369  178.45
 202.600  0.99376  177.88
 205.100  0.99368  177.43
 207.600  0.99336  177.02
 210.100  0.99349  176.47
 212.600  0.99387  176.00
 215.100  0.99384  175.54
 217.600  0.99348  175.05
 220.100  0.99370  174.61
 222.600  0.99374  174.09
 225.100  0.99352  173.59
 227.600  0.99336  173.03
 230.100  0.99309  172.54
 232.600  0.99297  172.02
 235.100  0.99285  171.46
 237.600  0.99211  170.91
 240.100  0.99186  170.30
 242.600  0.99139  169.68
 245.100  0.99071  169.06
 247.600  0.99085  168.40
 250.100  0.98943  167.69
 252.600  0.98892  166.84
 255.100  0.98809  166.12
 257.600  0.98772  165.29
 260.100  0.98675  164.33
 262.600  0.98544  163.38
 265.100  0.98419  162.22
 267.600  0.98267  160.94
 270.100  0.98052  159.64
 272.600  0.97742  157.99
 275.100  0.97445  156.25
 277.600  0.96897  154.08
 280.100  0.96329  151.64
 282.600  0.95469  148.45
 285.100  0.94209  144.81
 287.600  0.92437  139.93
 290.100  0.89821  133.55
 292.600  0.85711  124.77
 295.100  0.78839  111.85
 297.600  0.67462   91.50
 300.100  0.51028   56.33
 302.600  0.39800   -6.33
 305.100  0.50820  -69.52
 307.600  0.67262 -104.80
 310.100  0.78625 -125.13
 312.600  0.85479 -138.06
 315.100  0.89672 -146.79
 317.600  0.92308 -153.26
 320.100  0.94095 -157.99
 322.600  0.95329 -161.90
 325.100  0.96287 -164.84
 327.600  0.96946 -167.35
 330.100  0.97378 -169.40
 332.600  0.97842 -171.18
 335.100  0.98135 -172.86
 337.600  0.98338 -174.17
 340.100  0.98532 -175.27
 342.600  0.98681 -176.48
 345.100  0.98859 -177.69
 347.600  0.98917 -178.18
 350.100  0.99034 -179.32
 352.600  0.99099 -179.93
 355.100  0.99177  179.35
 357.600  0.99204  178.42
 360.100  0.99241  177.96
 362.600  0.99294  177.28
 365.100  0.99304  176.75
 367.600  0.99294  176.23
 370.100  0.99364  175.72
 372.600  0.99397  175.26
 375.100  0.99372  174.58
 377.600  0.99377  174.14
 380.100  0.99406  173.76
 382.600  0.99251  173.42
 385.100  0.99413  172.99
 387.600  0.99394  172.44
 390.100  0.99413  172.06
 392.600  0.99407  171.71
 395.100  0.99410  171.33
 397.600  0.99419  170.91
 400.100  0.99427  170.66
 402.600  0.99416  170.24
 405.100  0.99441  169.98
 407.600  0.99365  169.64
 410.100  0.99431  169.20
 412.600  0.99363  168.89
 415.100  0.99383  168.59
 417.600  0.99381  168.28
 420.100  0.99329  167.81
 422.600  0.99326  167.59
 425.100  0.99293  167.36
 427.600  0.99246  166.84
 430.100  0.99254  166.70
 432.600  0.99206  166.38
 435.100  0.99245  165.99
 437.600  0.99218  165.82
 440.100  0.99204  165.63
 442.600  0.99181  165.24
 445.100  0.99127  164.81
 447.600  0.99126  164.53
 450.100  0.99121  164.35
 452.600  0.99118  163.99
 455.100  0.99042  163.70
 457.600  0.99070  163.43
 460.100  0.99057  163.29
 462.600  0.99022  162.96
